Circuit: * Z:\home\fritz\Nextcloud\Elektroniknode\kneippometer\Simulationen\7-Segment-Matrix-2.asc

Direct Newton iteration for .op point succeeded.
Semiconductor Device Operating Points:
                        --- VDMOSFET Transistors ---
Name:          m12         m11         m10         m9          m8
Model:      irf7343p    irf7343p    irf7343p    irf7343p    irf7343p
Id:          1.92e-10   -1.36e+00    1.92e-10    1.95e-10    1.92e-10
Vgs:         0.00e+00   -6.00e+00    0.00e+00    0.00e+00    0.00e+00
Vds:        -6.00e+00   -3.83e-01   -6.00e+00   -5.84e+00   -6.00e+00
Vth:        -1.00e+00   -1.00e+00   -1.00e+00   -1.00e+00   -1.00e+00
Gm:          0.00e+00    2.83e-01    0.00e+00    0.00e+00    0.00e+00
Gds:         0.00e+00    4.67e+00    0.00e+00    0.00e+00    0.00e+00
Cgs:         8.30e-10    8.30e-10    8.30e-10    8.30e-10    8.30e-10
Cgd:         2.74e-10    1.50e-09    2.74e-10    2.76e-10    2.74e-10
Cbody:       2.87e-10    6.46e-10    2.87e-10    2.91e-10    2.87e-10

Name:          m7          m6          m5          m4          m3
Model:      irf7343p     irfz24      irfz24      irfz24      irfz24
Id:          7.28e-10    6.06e-10    1.01e-10    1.01e-10    6.06e-10
Vgs:         0.00e+00    0.00e+00    0.00e+00    0.00e+00    0.00e+00
Vds:        -3.83e-01    7.34e-10    5.62e+00    5.62e+00    1.09e-09
Vth:        -1.00e+00    3.50e+00    3.50e+00    3.50e+00    3.50e+00
Gm:          0.00e+00    0.00e+00    0.00e+00    0.00e+00    0.00e+00
Gds:         0.00e+00    0.00e+00    0.00e+00    0.00e+00    0.00e+00
Cgs:         8.30e-10    6.50e-10    6.50e-10    6.50e-10    6.50e-10
Cgd:         8.04e-10    6.06e-10    9.56e-11    9.56e-11    6.06e-10
Cbody:       6.46e-10    8.50e-10    3.47e-10    3.47e-10    8.50e-10

Name:          m2          m1
Model:       irfz24      irfz24
Id:          1.36e+00    1.21e-09
Vgs:         6.00e+00    6.00e+00
Vds:         1.59e-01    2.99e-11
Vth:         3.50e+00    3.50e+00
Gm:          5.70e-01    1.06e-10
Gds:         1.24e+01    1.35e+01
Cgs:         6.50e-10    6.50e-10
Cgd:         9.50e-10    9.50e-10
Cbody:       7.48e-10    8.50e-10



Date: Tue Jan 05 18:23:28 2021
Total elapsed time: 0.062 seconds.

tnom = 27
temp = 27
method = trap
totiter = 10
traniter = 0
tranpoints = 0
accept = 0
rejected = 0
matrix size = 56
fillins = 4
solver = Alternate
Matrix Compiler1: 5.17 KB object code size
Matrix Compiler2: 5.70 KB object code size

