Circuit: * Z:\home\fritz\Nextcloud\Elektroniknode\kneipp-thermometer\Simulationen\Laderegler.asc

WARNING: Less than two connections to node NC_01.  This node is used by V1.
Direct Newton iteration for .op point succeeded.
Semiconductor Device Operating Points:
                        --- Diodes ---
Name:      d26         d25         d24         d23         d22
Model:  10mq060n    udzv6_8b     murs120     murs120     murs120
Id:      5.51e-05   -1.18e-03    3.49e-01    3.49e-01    3.49e-01
Vd:      1.63e-01   -6.79e+00    7.26e-01    7.26e-01    7.26e-01
Req:     4.69e+02    2.17e+00    1.27e-01    1.27e-01    1.27e-01
CAP:     1.08e-10    3.92e-08    3.53e-07    3.53e-07    3.53e-07

Name:      d21         d20         d19         d18         d17
Model:   murs120     murs120     murs120     murs120     murs120
Id:      3.49e-01    3.49e-01    3.49e-01    3.49e-01    3.49e-01
Vd:      7.26e-01    7.26e-01    7.26e-01    7.26e-01    7.26e-01
Req:     1.27e-01    1.27e-01    1.27e-01    1.27e-01    1.27e-01
CAP:     3.53e-07    3.53e-07    3.53e-07    3.53e-07    3.53e-07

Name:      d16         d15         d14         d13         d12
Model:   murs120     murs120     murs120     murs120     murs120
Id:      3.49e-01    3.49e-01    3.49e-01    3.49e-01    3.49e-01
Vd:      7.26e-01    7.26e-01    7.26e-01    7.26e-01    7.26e-01
Req:     1.27e-01    1.27e-01    1.27e-01    1.27e-01    1.27e-01
CAP:     3.53e-07    3.53e-07    3.53e-07    3.53e-07    3.53e-07

Name:      d11         d10         d9          d8          d7
Model:   murs120     murs120     murs120     murs120     murs120
Id:      3.49e-01    3.49e-01    3.49e-01    3.49e-01    3.49e-01
Vd:      7.26e-01    7.26e-01    7.26e-01    7.26e-01    7.26e-01
Req:     1.27e-01    1.27e-01    1.27e-01    1.27e-01    1.27e-01
CAP:     3.53e-07    3.53e-07    3.53e-07    3.53e-07    3.53e-07

Name:      d6          d5          d4          d3          d2
Model:   murs120     murs120     murs120     murs120     murs120
Id:      3.49e-01    3.49e-01    3.49e-01    3.49e-01    3.49e-01
Vd:      7.26e-01    7.26e-01    7.26e-01    7.26e-01    7.26e-01
Req:     1.27e-01    1.27e-01    1.27e-01    1.27e-01    1.27e-01
CAP:     3.53e-07    3.53e-07    3.53e-07    3.53e-07    3.53e-07

Name:      d1
Model:   murs120
Id:      3.49e-01
Vd:      7.26e-01
Req:     1.27e-01
CAP:     3.53e-07

                        --- Bipolar Transistors ---
Name:       q1
Model:    2n2222
Ib:       2.48e-07
Ic:       5.48e-05
Vbe:      5.77e-01
Vbc:     -1.06e+01
Vce:      1.12e+01
BetaDC:   2.21e+02
Gm:       2.12e-03
Rpi:      1.04e+05
Rx:       1.00e+01
Ro:       2.02e+06
Cbe:      3.79e-11
Cbc:      3.26e-12
Cjs:      0.00e+00
BetaAC:   2.21e+02
Cbx:      0.00e+00
Ft:       8.20e+06



Date: Mon Jun 22 11:26:08 2020
Total elapsed time: 5.060 seconds.

tnom = 27
temp = 27
method = trap
totiter = 28
traniter = 0
tranpoints = 0
accept = 0
rejected = 0
matrix size = 60
fillins = 2
solver = Normal

